rl	V(v2s)	I(Rl)
1.000000000000000e-02	2.060388e-03	2.060388e-01
1.100000000000000e-01	2.293490e-02	2.084991e-01
2.100000000000000e-01	4.437390e-02	2.113043e-01
3.100000000000001e-01	6.648102e-02	2.144549e-01
4.100000000000000e-01	8.935093e-02	2.179291e-01
5.100000000000000e-01	1.130634e-01	2.216929e-01
6.100000000000000e-01	1.376839e-01	2.257113e-01
7.100000000000000e-01	1.632693e-01	2.299567e-01
8.099999999999999e-01	1.898742e-01	2.344126e-01
9.099999999999999e-01	2.175554e-01	2.390718e-01
1.010000000000000e+00	2.463746e-01	2.439353e-01
1.110000000000000e+00	2.763997e-01	2.490087e-01
1.210000000000000e+00	3.077053e-01	2.543019e-01
1.310000000000000e+00	3.403735e-01	2.598271e-01
1.410000000000000e+00	3.744942e-01	2.655987e-01
1.510000000000000e+00	4.101658e-01	2.716330e-01
1.610000000000001e+00	4.474964e-01	2.779481e-01
1.710000000000001e+00	4.866041e-01	2.845638e-01
1.810000000000001e+00	5.276189e-01	2.915021e-01
1.910000000000001e+00	5.706837e-01	2.987873e-01
2.010000000000001e+00	6.159562e-01	3.064459e-01
2.110000000000001e+00	6.636105e-01	3.145073e-01
2.210000000000001e+00	7.138396e-01	3.230043e-01
2.310000000000001e+00	7.668580e-01	3.319732e-01
2.410000000000001e+00	8.229047e-01	3.414542e-01
2.510000000000001e+00	8.822466e-01	3.514927e-01
2.610000000000001e+00	9.451832e-01	3.621392e-01
2.710000000000001e+00	1.012051e+00	3.734506e-01
2.810000000000001e+00	1.083231e+00	3.854914e-01
2.910000000000001e+00	1.159153e+00	3.983343e-01
3.010000000000002e+00	1.240307e+00	4.120622e-01
3.110000000000002e+00	1.327255e+00	4.267700e-01
3.210000000000002e+00	1.420638e+00	4.425662e-01
3.310000000000002e+00	1.521198e+00	4.595765e-01
3.410000000000002e+00	1.629797e+00	4.779462e-01
3.510000000000002e+00	1.747437e+00	4.978452e-01
3.610000000000002e+00	1.875296e+00	5.194725e-01
3.710000000000002e+00	2.014766e+00	5.430635e-01
3.810000000000002e+00	2.167502e+00	5.688983e-01
3.910000000000002e+00	2.335493e+00	5.973127e-01
4.010000000000002e+00	2.521140e+00	6.287133e-01
4.110000000000002e+00	2.727382e+00	6.635966e-01
4.210000000000002e+00	2.957825e+00	7.025713e-01
4.310000000000001e+00	3.205108e+00	7.436446e-01
4.410000000000001e+00	3.317508e+00	7.522694e-01
4.510000000000001e+00	3.317902e+00	7.356766e-01
4.610000000000000e+00	3.317904e+00	7.197190e-01
4.710000000000000e+00	3.317907e+00	7.044389e-01
4.810000000000000e+00	3.317910e+00	6.897942e-01
4.909999999999999e+00	3.317913e+00	6.757460e-01
5.009999999999999e+00	3.317915e+00	6.622586e-01
5.109999999999999e+00	3.317918e+00	6.492990e-01
5.209999999999998e+00	3.317920e+00	6.368369e-01
5.309999999999998e+00	3.317923e+00	6.248442e-01
5.409999999999997e+00	3.317925e+00	6.132948e-01
5.509999999999997e+00	3.317927e+00	6.021646e-01
5.609999999999997e+00	3.317929e+00	5.914312e-01
5.709999999999996e+00	3.317931e+00	5.810738e-01
5.809999999999996e+00	3.317933e+00	5.710729e-01
5.909999999999996e+00	3.317935e+00	5.614104e-01
6.009999999999995e+00	3.317937e+00	5.520694e-01
6.109999999999995e+00	3.317939e+00	5.430343e-01
6.209999999999995e+00	3.317941e+00	5.342900e-01
6.309999999999994e+00	3.317943e+00	5.258229e-01
6.409999999999994e+00	3.317945e+00	5.176201e-01
6.509999999999994e+00	3.317946e+00	5.096692e-01
6.609999999999993e+00	3.317948e+00	5.019588e-01
6.709999999999993e+00	3.317950e+00	4.944783e-01
6.809999999999993e+00	3.317951e+00	4.872175e-01
6.909999999999992e+00	3.317953e+00	4.801668e-01
7.009999999999992e+00	3.317954e+00	4.733173e-01
7.109999999999991e+00	3.317956e+00	4.666604e-01
7.209999999999991e+00	3.317957e+00	4.601882e-01
7.309999999999991e+00	3.317959e+00	4.538931e-01
7.409999999999990e+00	3.317960e+00	4.477679e-01
7.509999999999990e+00	3.317961e+00	4.418058e-01
7.609999999999990e+00	3.317963e+00	4.360004e-01
7.709999999999989e+00	3.317964e+00	4.303456e-01
7.809999999999989e+00	3.317966e+00	4.248355e-01
7.909999999999989e+00	3.317967e+00	4.194648e-01
8.009999999999989e+00	3.317968e+00	4.142282e-01
8.109999999999989e+00	3.317969e+00	4.091207e-01
8.209999999999988e+00	3.317971e+00	4.041377e-01
8.309999999999988e+00	3.317972e+00	3.992746e-01
8.409999999999988e+00	3.317973e+00	3.945271e-01
8.509999999999987e+00	3.317974e+00	3.898912e-01
8.609999999999987e+00	3.317975e+00	3.853630e-01
8.709999999999987e+00	3.317976e+00	3.809387e-01
8.809999999999986e+00	3.317977e+00	3.766149e-01
8.909999999999986e+00	3.317978e+00	3.723882e-01
9.009999999999986e+00	3.317979e+00	3.682552e-01
9.109999999999985e+00	3.317981e+00	3.642130e-01
9.209999999999985e+00	3.317981e+00	3.602586e-01
9.309999999999985e+00	3.317982e+00	3.563891e-01
9.409999999999984e+00	3.317983e+00	3.526019e-01
9.509999999999984e+00	3.317984e+00	3.488943e-01
9.609999999999983e+00	3.317985e+00	3.452638e-01
9.709999999999983e+00	3.317986e+00	3.417082e-01
9.809999999999983e+00	3.317987e+00	3.382250e-01
9.909999999999982e+00	3.317988e+00	3.348121e-01
1.000999999999998e+01	3.317989e+00	3.314674e-01
1.010999999999998e+01	3.317990e+00	3.281889e-01
1.020999999999998e+01	3.317991e+00	3.249746e-01
1.030999999999998e+01	3.317992e+00	3.218227e-01
1.040999999999998e+01	3.317992e+00	3.187313e-01
1.050999999999998e+01	3.317993e+00	3.156987e-01
1.060999999999998e+01	3.317994e+00	3.127233e-01
1.070999999999998e+01	3.317995e+00	3.098035e-01
1.080999999999998e+01	3.317996e+00	3.069376e-01
1.090999999999998e+01	3.317997e+00	3.041244e-01
1.100999999999998e+01	3.317997e+00	3.013622e-01
1.110999999999998e+01	3.317998e+00	2.986497e-01
1.120999999999998e+01	3.317999e+00	2.959856e-01
1.130999999999998e+01	3.318000e+00	2.933687e-01
1.140999999999998e+01	3.318000e+00	2.907976e-01
1.150999999999998e+01	3.318001e+00	2.882712e-01
1.160999999999998e+01	3.318002e+00	2.857883e-01
1.170999999999998e+01	3.318002e+00	2.833478e-01
1.180999999999998e+01	3.318003e+00	2.809486e-01
1.190999999999998e+01	3.318004e+00	2.785898e-01
1.200999999999997e+01	3.318005e+00	2.762702e-01
1.210999999999997e+01	3.318005e+00	2.739889e-01
1.220999999999997e+01	3.318006e+00	2.717450e-01
1.230999999999997e+01	3.318007e+00	2.695375e-01
1.240999999999997e+01	3.318007e+00	2.673656e-01
1.250999999999997e+01	3.318008e+00	2.652285e-01
1.260999999999997e+01	3.318008e+00	2.631252e-01
1.270999999999997e+01	3.318009e+00	2.610550e-01
1.280999999999997e+01	3.318010e+00	2.590171e-01
1.290999999999997e+01	3.318010e+00	2.570109e-01
1.300999999999997e+01	3.318011e+00	2.550354e-01
1.310999999999997e+01	3.318012e+00	2.530901e-01
1.320999999999997e+01	3.318012e+00	2.511743e-01
1.330999999999997e+01	3.318013e+00	2.492872e-01
1.340999999999997e+01	3.318013e+00	2.474283e-01
1.350999999999997e+01	3.318014e+00	2.455969e-01
1.360999999999997e+01	3.318014e+00	2.437924e-01
1.370999999999997e+01	3.318015e+00	2.420142e-01
1.380999999999997e+01	3.318016e+00	2.402618e-01
1.390999999999997e+01	3.318016e+00	2.385346e-01
1.400999999999997e+01	3.318017e+00	2.368320e-01
1.410999999999997e+01	3.318017e+00	2.351536e-01
1.420999999999997e+01	3.318018e+00	2.334988e-01
1.430999999999997e+01	3.318018e+00	2.318671e-01
1.440999999999997e+01	3.318019e+00	2.302581e-01
1.450999999999997e+01	3.318019e+00	2.286712e-01
1.460999999999997e+01	3.318020e+00	2.271061e-01
1.470999999999997e+01	3.318020e+00	2.255622e-01
1.480999999999996e+01	3.318021e+00	2.240392e-01
1.490999999999996e+01	3.318021e+00	2.225366e-01
1.500999999999996e+01	3.318022e+00	2.210541e-01
1.510999999999996e+01	3.318022e+00	2.195911e-01
1.520999999999996e+01	3.318023e+00	2.181474e-01
1.530999999999996e+01	3.318023e+00	2.167226e-01
1.540999999999996e+01	3.318024e+00	2.153163e-01
1.550999999999996e+01	3.318024e+00	2.139280e-01
1.560999999999996e+01	3.318024e+00	2.125576e-01
1.570999999999996e+01	3.318025e+00	2.112046e-01
1.580999999999996e+01	3.318025e+00	2.098688e-01
1.590999999999996e+01	3.318026e+00	2.085497e-01
1.600999999999996e+01	3.318026e+00	2.072471e-01
1.610999999999996e+01	3.318027e+00	2.059607e-01
1.620999999999997e+01	3.318027e+00	2.046901e-01
1.630999999999997e+01	3.318027e+00	2.034352e-01
1.640999999999997e+01	3.318028e+00	2.021955e-01
1.650999999999997e+01	3.318028e+00	2.009708e-01
1.660999999999997e+01	3.318029e+00	1.997609e-01
1.670999999999997e+01	3.318029e+00	1.985655e-01
1.680999999999997e+01	3.318030e+00	1.973843e-01
1.690999999999998e+01	3.318030e+00	1.962170e-01
1.700999999999998e+01	3.318031e+00	1.950635e-01
1.710999999999998e+01	3.318031e+00	1.939235e-01
1.720999999999998e+01	3.318031e+00	1.927967e-01
1.730999999999998e+01	3.318032e+00	1.916829e-01
1.740999999999998e+01	3.318032e+00	1.905820e-01
1.750999999999998e+01	3.318033e+00	1.894936e-01
1.760999999999999e+01	3.318033e+00	1.884175e-01
1.770999999999999e+01	3.318033e+00	1.873537e-01
1.780999999999999e+01	3.318034e+00	1.863017e-01
1.790999999999999e+01	3.318034e+00	1.852615e-01
1.800999999999999e+01	3.318034e+00	1.842329e-01
1.810999999999999e+01	3.318035e+00	1.832156e-01
1.820999999999999e+01	3.318035e+00	1.822095e-01
1.831000000000000e+01	3.318035e+00	1.812144e-01
1.841000000000000e+01	3.318036e+00	1.802301e-01
1.851000000000000e+01	3.318036e+00	1.792564e-01
1.861000000000000e+01	3.318037e+00	1.782932e-01
1.871000000000000e+01	3.318037e+00	1.773403e-01
1.881000000000000e+01	3.318037e+00	1.763975e-01
1.891000000000000e+01	3.318038e+00	1.754647e-01
1.901000000000001e+01	3.318038e+00	1.745417e-01
1.911000000000001e+01	3.318038e+00	1.736284e-01
1.921000000000001e+01	3.318038e+00	1.727245e-01
1.931000000000001e+01	3.318039e+00	1.718301e-01
1.941000000000001e+01	3.318039e+00	1.709448e-01
1.951000000000001e+01	3.318039e+00	1.700687e-01
1.961000000000001e+01	3.318040e+00	1.692014e-01
1.971000000000002e+01	3.318040e+00	1.683430e-01
1.981000000000002e+01	3.318040e+00	1.674932e-01
1.991000000000002e+01	3.318041e+00	1.666520e-01
2.001000000000002e+01	3.318041e+00	1.658192e-01
2.011000000000002e+01	3.318041e+00	1.649946e-01
2.021000000000002e+01	3.318042e+00	1.641782e-01
2.031000000000002e+01	3.318042e+00	1.633699e-01
2.041000000000003e+01	3.318042e+00	1.625694e-01
2.051000000000003e+01	3.318043e+00	1.617768e-01
2.061000000000003e+01	3.318043e+00	1.609919e-01
2.071000000000003e+01	3.318043e+00	1.602145e-01
2.081000000000003e+01	3.318043e+00	1.594447e-01
2.091000000000003e+01	3.318044e+00	1.586822e-01
2.101000000000003e+01	3.318044e+00	1.579269e-01
2.111000000000003e+01	3.318044e+00	1.571788e-01
2.121000000000004e+01	3.318045e+00	1.564378e-01
2.131000000000004e+01	3.318045e+00	1.557037e-01
2.141000000000004e+01	3.318045e+00	1.549764e-01
2.151000000000004e+01	3.318046e+00	1.542560e-01
2.161000000000004e+01	3.318046e+00	1.535421e-01
2.171000000000004e+01	3.318046e+00	1.528349e-01
2.181000000000004e+01	3.318046e+00	1.521342e-01
2.191000000000005e+01	3.318047e+00	1.514398e-01
2.201000000000005e+01	3.318047e+00	1.507518e-01
2.211000000000005e+01	3.318047e+00	1.500700e-01
2.221000000000005e+01	3.318048e+00	1.493943e-01
2.231000000000005e+01	3.318048e+00	1.487247e-01
2.241000000000005e+01	3.318048e+00	1.480611e-01
2.251000000000005e+01	3.318048e+00	1.474033e-01
2.261000000000006e+01	3.318048e+00	1.467514e-01
2.271000000000006e+01	3.318049e+00	1.461052e-01
2.281000000000006e+01	3.318049e+00	1.454647e-01
2.291000000000006e+01	3.318049e+00	1.448297e-01
2.301000000000006e+01	3.318050e+00	1.442003e-01
2.311000000000006e+01	3.318050e+00	1.435764e-01
2.321000000000006e+01	3.318050e+00	1.429578e-01
2.331000000000007e+01	3.318050e+00	1.423445e-01
2.341000000000007e+01	3.318051e+00	1.417365e-01
2.351000000000007e+01	3.318051e+00	1.411336e-01
2.361000000000007e+01	3.318051e+00	1.405358e-01
2.371000000000007e+01	3.318051e+00	1.399431e-01
2.381000000000007e+01	3.318052e+00	1.393554e-01
2.391000000000007e+01	3.318052e+00	1.387726e-01
2.401000000000008e+01	3.318052e+00	1.381946e-01
2.411000000000008e+01	3.318052e+00	1.376214e-01
2.421000000000008e+01	3.318053e+00	1.370530e-01
2.431000000000008e+01	3.318053e+00	1.364892e-01
2.441000000000008e+01	3.318053e+00	1.359301e-01
2.451000000000008e+01	3.318053e+00	1.353755e-01
2.461000000000008e+01	3.318053e+00	1.348254e-01
2.471000000000009e+01	3.318054e+00	1.342798e-01
2.481000000000009e+01	3.318054e+00	1.337386e-01
2.491000000000009e+01	3.318054e+00	1.332017e-01
2.501000000000009e+01	3.318054e+00	1.326691e-01
2.511000000000009e+01	3.318055e+00	1.321408e-01
2.521000000000009e+01	3.318055e+00	1.316166e-01
2.531000000000009e+01	3.318055e+00	1.310966e-01
2.541000000000010e+01	3.318055e+00	1.305807e-01
2.551000000000010e+01	3.318055e+00	1.300688e-01
2.561000000000010e+01	3.318056e+00	1.295609e-01
2.571000000000010e+01	3.318056e+00	1.290570e-01
2.581000000000010e+01	3.318056e+00	1.285570e-01
2.591000000000010e+01	3.318056e+00	1.280608e-01
2.601000000000010e+01	3.318057e+00	1.275685e-01
2.611000000000011e+01	3.318057e+00	1.270799e-01
2.621000000000011e+01	3.318057e+00	1.265951e-01
2.631000000000011e+01	3.318057e+00	1.261139e-01
2.641000000000011e+01	3.318057e+00	1.256364e-01
2.651000000000011e+01	3.318058e+00	1.251625e-01
2.661000000000011e+01	3.318058e+00	1.246921e-01
2.671000000000011e+01	3.318058e+00	1.242253e-01
2.681000000000012e+01	3.318058e+00	1.237620e-01
2.691000000000012e+01	3.318058e+00	1.233021e-01
2.701000000000012e+01	3.318058e+00	1.228456e-01
2.711000000000012e+01	3.318059e+00	1.223924e-01
2.721000000000012e+01	3.318059e+00	1.219426e-01
2.731000000000012e+01	3.318059e+00	1.214961e-01
2.741000000000012e+01	3.318059e+00	1.210529e-01
2.751000000000013e+01	3.318060e+00	1.206129e-01
2.761000000000013e+01	3.318060e+00	1.201760e-01
2.771000000000013e+01	3.318060e+00	1.197423e-01
2.781000000000013e+01	3.318060e+00	1.193118e-01
2.791000000000013e+01	3.318060e+00	1.188843e-01
2.801000000000013e+01	3.318061e+00	1.184599e-01
2.811000000000013e+01	3.318061e+00	1.180384e-01
2.821000000000014e+01	3.318061e+00	1.176200e-01
2.831000000000014e+01	3.318061e+00	1.172046e-01
2.841000000000014e+01	3.318061e+00	1.167920e-01
2.851000000000014e+01	3.318062e+00	1.163824e-01
2.861000000000014e+01	3.318062e+00	1.159756e-01
2.871000000000014e+01	3.318062e+00	1.155716e-01
2.881000000000014e+01	3.318062e+00	1.151705e-01
2.891000000000015e+01	3.318062e+00	1.147721e-01
2.901000000000015e+01	3.318062e+00	1.143765e-01
2.911000000000015e+01	3.318063e+00	1.139836e-01
2.921000000000015e+01	3.318063e+00	1.135934e-01
2.931000000000015e+01	3.318063e+00	1.132058e-01
2.941000000000015e+01	3.318063e+00	1.128209e-01
2.951000000000015e+01	3.318063e+00	1.124386e-01
2.961000000000016e+01	3.318063e+00	1.120589e-01
2.971000000000016e+01	3.318064e+00	1.116817e-01
2.981000000000016e+01	3.318064e+00	1.113071e-01
2.991000000000016e+01	3.318064e+00	1.109349e-01
3.001000000000016e+01	3.318064e+00	1.105653e-01
3.011000000000016e+01	3.318064e+00	1.101981e-01
3.021000000000016e+01	3.318064e+00	1.098333e-01
3.031000000000017e+01	3.318065e+00	1.094710e-01
3.041000000000017e+01	3.318065e+00	1.091110e-01
3.051000000000017e+01	3.318065e+00	1.087534e-01
3.061000000000017e+01	3.318065e+00	1.083981e-01
3.071000000000017e+01	3.318065e+00	1.080451e-01
3.081000000000017e+01	3.318065e+00	1.076944e-01
3.091000000000017e+01	3.318066e+00	1.073460e-01
3.101000000000018e+01	3.318066e+00	1.069999e-01
3.111000000000018e+01	3.318066e+00	1.066559e-01
3.121000000000018e+01	3.318066e+00	1.063142e-01
3.131000000000018e+01	3.318066e+00	1.059747e-01
3.141000000000018e+01	3.318066e+00	1.056373e-01
3.151000000000018e+01	3.318067e+00	1.053020e-01
3.161000000000018e+01	3.318067e+00	1.049689e-01
3.171000000000019e+01	3.318067e+00	1.046379e-01
3.181000000000019e+01	3.318067e+00	1.043089e-01
3.191000000000019e+01	3.318067e+00	1.039821e-01
3.201000000000019e+01	3.318067e+00	1.036572e-01
3.211000000000019e+01	3.318068e+00	1.033344e-01
3.221000000000019e+01	3.318068e+00	1.030136e-01
3.231000000000019e+01	3.318068e+00	1.026948e-01
3.241000000000020e+01	3.318068e+00	1.023779e-01
3.251000000000020e+01	3.318068e+00	1.020630e-01
3.261000000000020e+01	3.318068e+00	1.017500e-01
3.271000000000020e+01	3.318069e+00	1.014390e-01
3.281000000000020e+01	3.318069e+00	1.011298e-01
3.291000000000020e+01	3.318069e+00	1.008225e-01
3.301000000000020e+01	3.318069e+00	1.005171e-01
3.311000000000021e+01	3.318069e+00	1.002135e-01
3.321000000000021e+01	3.318069e+00	9.991175e-02
3.331000000000021e+01	3.318069e+00	9.961181e-02
3.341000000000021e+01	3.318069e+00	9.931366e-02
3.351000000000021e+01	3.318070e+00	9.901730e-02
3.361000000000021e+01	3.318070e+00	9.872270e-02
3.371000000000021e+01	3.318070e+00	9.842984e-02
3.381000000000022e+01	3.318070e+00	9.813872e-02
3.391000000000022e+01	3.318070e+00	9.784931e-02
3.401000000000022e+01	3.318070e+00	9.756161e-02
3.411000000000022e+01	3.318070e+00	9.727559e-02
3.421000000000022e+01	3.318071e+00	9.699125e-02
3.431000000000022e+01	3.318071e+00	9.670856e-02
3.441000000000022e+01	3.318071e+00	9.642752e-02
3.451000000000023e+01	3.318071e+00	9.614810e-02
3.461000000000023e+01	3.318071e+00	9.587030e-02
3.471000000000023e+01	3.318071e+00	9.559410e-02
3.481000000000023e+01	3.318071e+00	9.531949e-02
3.491000000000023e+01	3.318072e+00	9.504645e-02
3.501000000000023e+01	3.318072e+00	9.477497e-02
3.511000000000023e+01	3.318072e+00	9.450503e-02
3.521000000000024e+01	3.318072e+00	9.423663e-02
3.531000000000024e+01	3.318072e+00	9.396975e-02
3.541000000000024e+01	3.318072e+00	9.370439e-02
3.551000000000024e+01	3.318072e+00	9.344050e-02
3.561000000000024e+01	3.318073e+00	9.317811e-02
3.571000000000024e+01	3.318073e+00	9.291718e-02
3.581000000000024e+01	3.318073e+00	9.265772e-02
3.591000000000025e+01	3.318073e+00	9.239969e-02
3.601000000000025e+01	3.318073e+00	9.214310e-02
3.611000000000025e+01	3.318073e+00	9.188793e-02
3.621000000000025e+01	3.318073e+00	9.163417e-02
3.631000000000025e+01	3.318074e+00	9.138181e-02
3.641000000000025e+01	3.318074e+00	9.113083e-02
3.651000000000025e+01	3.318074e+00	9.088123e-02
3.661000000000026e+01	3.318074e+00	9.063299e-02
3.671000000000026e+01	3.318074e+00	9.038611e-02
3.681000000000026e+01	3.318074e+00	9.014056e-02
3.691000000000026e+01	3.318074e+00	8.989635e-02
3.701000000000026e+01	3.318074e+00	8.965345e-02
3.711000000000026e+01	3.318074e+00	8.941187e-02
3.721000000000026e+01	3.318074e+00	8.917158e-02
3.731000000000027e+01	3.318075e+00	8.893258e-02
3.741000000000027e+01	3.318075e+00	8.869486e-02
3.751000000000027e+01	3.318075e+00	8.845841e-02
3.761000000000027e+01	3.318075e+00	8.822321e-02
3.771000000000027e+01	3.318075e+00	8.798926e-02
3.781000000000027e+01	3.318075e+00	8.775655e-02
3.791000000000027e+01	3.318075e+00	8.752507e-02
3.801000000000028e+01	3.318075e+00	8.729480e-02
3.811000000000028e+01	3.318076e+00	8.706575e-02
3.821000000000028e+01	3.318076e+00	8.683789e-02
3.831000000000028e+01	3.318076e+00	8.661122e-02
3.841000000000028e+01	3.318076e+00	8.638573e-02
3.851000000000028e+01	3.318076e+00	8.616141e-02
3.861000000000028e+01	3.318076e+00	8.593826e-02
3.871000000000029e+01	3.318076e+00	8.571626e-02
3.881000000000029e+01	3.318076e+00	8.549540e-02
3.891000000000029e+01	3.318077e+00	8.527568e-02
3.901000000000029e+01	3.318077e+00	8.505708e-02
3.911000000000029e+01	3.318077e+00	8.483960e-02
3.921000000000029e+01	3.318077e+00	8.462323e-02
3.931000000000029e+01	3.318077e+00	8.440796e-02
3.941000000000030e+01	3.318077e+00	8.419379e-02
3.951000000000030e+01	3.318077e+00	8.398069e-02
3.961000000000030e+01	3.318077e+00	8.376868e-02
3.971000000000030e+01	3.318078e+00	8.355773e-02
3.981000000000030e+01	3.318078e+00	8.334784e-02
3.991000000000030e+01	3.318078e+00	8.313900e-02
4.001000000000030e+01	3.318078e+00	8.293121e-02
4.011000000000030e+01	3.318078e+00	8.272446e-02
4.021000000000031e+01	3.318078e+00	8.251873e-02
4.031000000000031e+01	3.318078e+00	8.231402e-02
4.041000000000031e+01	3.318078e+00	8.211032e-02
4.051000000000031e+01	3.318078e+00	8.190764e-02
4.061000000000031e+01	3.318079e+00	8.170595e-02
4.071000000000031e+01	3.318079e+00	8.150525e-02
4.081000000000031e+01	3.318079e+00	8.130553e-02
4.091000000000032e+01	3.318079e+00	8.110679e-02
4.101000000000032e+01	3.318079e+00	8.090902e-02
4.111000000000032e+01	3.318079e+00	8.071221e-02
4.121000000000032e+01	3.318079e+00	8.051636e-02
4.131000000000032e+01	3.318079e+00	8.032145e-02
4.141000000000032e+01	3.318079e+00	8.012749e-02
4.151000000000032e+01	3.318079e+00	7.993446e-02
