LTspice 24.0.12 for Windows
Circuit: * X:\taller-circuitos-tpi\CHECK 3\2024-10-15 prueba vref caso limite.asc
Start Time: Thu Oct 24 19:03:19 2024
Warning: Multiple definitions of model "2scr375p" Type: BJT
Warning: Multiple definitions of model "bc857b" Type: BJT
Warning: Multiple definitions of model "bc847c" Type: BJT
Warning: Multiple definitions of model "bc847b" Type: BJT
solver = Normal
Maximum thread count: 2
tnom = 27
temp = 27
method = modified trap
Direct Newton iteration for .op point succeeded.
Semiconductor Device Operating Points:
                        --- Bipolar Transistors ---
Name:       q2          q3          q1          q4          q5
Model:    bc558b      bc558b      bc558b      bc548b      bc548b
Ib:       7.92e-12   -1.32e-11   -7.51e-05   -1.09e-11    5.45e-04
Ic:       1.02e-15    9.88e-11    5.45e-04    5.26e-12   -5.45e-04
Vbe:      7.91e+00    7.91e+00    7.51e+00   -5.53e+00    6.48e-01
Vbc:      0.00e+00   -2.91e-01   -6.96e-01   -5.24e+00    6.49e-01
Vce:      7.91e+00    8.20e+00    8.20e+00   -2.92e-01   -6.28e-04
BetaDC:   1.29e-04   -7.49e+00   -7.26e+00   -4.84e-01   -1.00e+00
Gm:      -3.94e-14   -3.00e-09   -1.81e-02    0.00e+00   -7.65e-05
Rpi:      1.00e+12    1.00e+12    1.00e+12    1.00e+12    1.44e+04
Rx:       0.00e+00    0.00e+00    0.00e+00    0.00e+00    0.00e+00
Ro:       2.54e+13    3.33e+08    5.51e+01    0.00e+00    4.85e+01
Cbe:      1.17e-11    1.17e-11    1.19e-11    2.16e-12    4.63e-11
Cbc:      9.81e-12    1.32e-11    2.04e-10    2.53e-12    2.19e-10
Cjs:      0.00e+00    0.00e+00    0.00e+00    0.00e+00    0.00e+00
BetaAC:  -3.94e-02   -3.00e+03   -1.81e+10    0.00e+00   -1.10e+00
Cbx:      0.00e+00    0.00e+00    0.00e+00    0.00e+00    0.00e+00
Ft:       7.39e-03    1.92e+01    1.34e+07    3.40e-02    1.95e+04

Name:       q6          q7          q8
Model:    bc548b      bc548b      bc548b
Ib:      -6.42e-12   -1.46e-11   -1.17e-12
Ic:      -7.29e-15    8.22e-12    1.18e-12
Vbe:     -6.35e+00   -6.35e+00    0.00e+00
Vbc:      0.00e+00   -8.20e+00   -1.16e+00
Vce:     -6.35e+00    1.85e+00    1.16e+00
BetaDC:   1.14e-03   -5.62e-01   -1.01e+00
Gm:      -2.72e-13    0.00e+00    2.77e-13
Rpi:      1.00e+12    1.00e+12    3.75e+11
Rx:       0.00e+00    0.00e+00    0.00e+00
Ro:       3.67e+12    0.00e+00    8.91e+15
Cbe:      1.98e-12    1.98e-12    1.15e-11
Cbc:      5.25e-12    2.22e-12    3.70e-12
Cjs:      0.00e+00    0.00e+00    0.00e+00
BetaAC:  -2.72e-01    0.00e+00    1.04e-01
Cbx:      0.00e+00    0.00e+00    0.00e+00
Ft:       2.12e-02    3.79e-02    2.78e-02

                        --- VDMOSFET Transistors ---
Name:          m1
Model:       irf9640
Id:          8.38e-01
Vgs:         8.20e+00
Vds:         7.42e-01
Vth:        -3.50e+00
Gm:          0.00e+00
Gds:         0.00e+00
Cgs:         1.00e-09
Cgd:         1.44e-10
Cbody:       1.58e-09


Total elapsed time: 0.361 seconds.

