LTspice 24.0.12 for Windows
Circuit: * X:\taller-circuitos-tpi\CHECK 3\2024-10-27 prueba vref caso limite.asc
Start Time: Sun Oct 27 22:05:49 2024
Warning: Multiple definitions of model "2scr375p" Type: BJT
Warning: Multiple definitions of model "bc857b" Type: BJT
Warning: Multiple definitions of model "bc847c" Type: BJT
Warning: Multiple definitions of model "bc847b" Type: BJT
solver = Normal
Maximum thread count: 2
tnom = 27
temp = 27
method = modified trap
gmin = 1e-10
abstol = 1e-10
reltol = 0.003
Instance "m2": Length shorter than recommended for a level 1 MOSFET.
Instance "m2": Width narrower than recommended for a level 1 MOSFET.
Direct Newton iteration failed to find .op point.  (Use ".option noopiter" to skip.)
Starting Gmin stepping
Gmin = 10
Gmin = 1.07374
Gmin = 0.115292
Gmin = 0.0123794
Gmin = 0.00132923
Gmin = 0.000142725
Gmin = 1.5325e-05
vernier = 0.5
Gmin = 2.5711e-06
vernier = 0.25
vernier = 0.125
Gmin = 1.90187e-06
vernier = 0.166667
vernier = 0.222222
Gmin = 1.22744e-06
vernier = 0.296296
vernier = 0.395061
Gmin = 6.18655e-07
vernier = 0.526748
Gmin = 2.0811e-07
vernier = 0.702331
vernier = 0.936441
Gmin = 3.70668e-08
vernier = 1
Gmin = 4.13573e-09
Gmin = 4.44071e-10
Gmin = 4.76818e-11
Gmin = 0
Gmin stepping succeeded in finding the operating point.

Semiconductor Device Operating Points:
                        --- Bipolar Transistors ---
Name:       q3          q5          q2          q6          q1
Model:   q3_bc558b   q5_bc558b   q2_bc548b   q6_bc548b   q1_bc548b
Ib:      -8.15e-06   -7.95e-06    9.84e-06    9.94e-06    2.09e-05
Ic:      -2.84e-03   -2.84e-03    2.85e-03    2.84e-03    5.62e-03
Vbe:     -7.42e-01   -7.42e-01    6.91e-01    6.91e-01    7.10e-01
Vbc:      0.00e+00    9.44e-01   -2.88e+00   -1.93e+00    0.00e+00
Vce:     -7.42e-01   -1.69e+00    3.57e+00    2.62e+00    7.10e-01
BetaDC:   3.48e+02    3.57e+02    2.90e+02    2.86e+02    2.68e+02
Gm:       1.06e-01    1.06e-01    1.07e-01    1.07e-01    2.05e-01
Rpi:      3.19e+03    3.27e+03    2.79e+03    2.76e+03    1.29e+03
Rx:       0.00e+00    0.00e+00    0.00e+00    0.00e+00    0.00e+00
Ro:       1.84e+04    1.87e+04    2.30e+04    2.28e+04    1.12e+04
Cbe:      1.28e-10    1.28e-10    8.39e-11    8.37e-11    1.25e-10
Cbc:      9.83e-12    6.86e-12    2.98e-12    3.30e-12    5.27e-12
Cjs:      0.00e+00    0.00e+00    0.00e+00    0.00e+00    0.00e+00
BetaAC:   3.39e+02    3.48e+02    2.98e+02    2.94e+02    2.64e+02
Cbx:      0.00e+00    0.00e+00    0.00e+00    0.00e+00    0.00e+00
Ft:       1.23e+08    1.26e+08    1.96e+08    1.95e+08    2.50e+08

Name:       q4          q8          q7
Model:   q4_bc548b   q8_bc558b   q7_bc548b
Ib:       2.08e-05    1.97e-10   -6.35e-10
Ic:       5.71e-03   -1.97e-10    6.35e-10
Vbe:      7.10e-01   -8.28e-05    0.00e+00
Vbc:     -1.05e+00    1.97e+00   -6.35e+00
Vce:      1.76e+00   -1.97e+00    6.35e+00
BetaDC:   2.74e+02   -1.00e+00   -1.00e+00
Gm:       2.08e-01    4.10e-14    3.00e-13
Rpi:      1.30e+03    9.98e+09    9.84e+09
Rx:       0.00e+00    0.00e+00    0.00e+00
Ro:       1.12e+04    5.11e+16    8.91e+15
Cbe:      1.27e-10    3.00e-11    1.15e-11
Cbc:      3.78e-12    5.73e-12    2.39e-12
Cjs:      0.00e+00    0.00e+00    0.00e+00
BetaAC:   2.70e+02    4.09e-04    2.95e-03
Cbx:      0.00e+00    0.00e+00    0.00e+00
Ft:       2.54e+08    4.46e-01    1.16e+00

                        --- MOSFET Transistors ---
Name:          m1          m2
Model:     irf9540npbf   2n7000
Id:         -7.61e-01    1.66e-03
Vgs:        -1.97e+00    6.35e+00
Vds:        -1.27e+00    1.64e-01
Vbs:         0.00e+00    0.00e+00
Vth:        -1.50e+00    2.10e+00
Vdsat:      -4.69e-01    4.25e+00
Gm:          3.25e+00    3.99e-04
Gds:         1.93e-03    1.02e-02
Gmb:         0.00e+00    0.00e+00
Cbd:         0.00e+00    0.00e+00
Cbs:         0.00e+00    0.00e+00
Cgsov:       1.16e-09    1.80e-15
Cgdov:       1.00e-15    1.00e-17
Cgbov:       0.00e+00    0.00e+00
Cgs:         0.00e+00    0.00e+00
Cgd:         0.00e+00    0.00e+00
Cgb:         0.00e+00    0.00e+00


Total elapsed time: 0.517 seconds.

