LTspice 24.0.12 for Windows
Circuit: * X:\taller-circuitos-tpi\CHECK 3\2024-10-27 prueba vref caso limite.asc
Start Time: Mon Nov  4 10:34:17 2024
Warning: Multiple definitions of model "2scr375p" Type: BJT
Warning: Multiple definitions of model "bc857b" Type: BJT
Warning: Multiple definitions of model "bc847c" Type: BJT
Warning: Multiple definitions of model "bc847b" Type: BJT
solver = Normal
Maximum thread count: 2
tnom = 27
temp = 27
method = modified trap
gmin = 1e-10
abstol = 1e-10
reltol = 0.003
Instance "m2": Length shorter than recommended for a level 1 MOSFET.
Instance "m2": Width narrower than recommended for a level 1 MOSFET.
Direct Newton iteration failed to find .op point.  (Use ".option noopiter" to skip.)
Starting Gmin stepping
Gmin = 10
Gmin = 1.07374
Gmin = 0.115292
Gmin = 0.0123794
Gmin = 0.00132923
Gmin = 0.000142725
Gmin = 1.5325e-05
vernier = 0.5
Gmin = 2.5711e-06
vernier = 0.25
vernier = 0.125
vernier = 0.0625
Gmin = 2.08531e-06
vernier = 0.03125
vernier = 0.015625
vernier = 0.0078125
Gmin = 2.09325e-06
vernier = 0.0104167
vernier = 0.0138889
Gmin = 2.03555e-06
vernier = 0.0185185
vernier = 0.0246913
Gmin = 1.94741e-06
vernier = 0.0329218
Gmin = 1.81257e-06
vernier = 0.0438957
vernier = 0.0585276
Gmin = 1.61202e-06
vernier = 0.0780367
vernier = 0.104049
Gmin = 1.33951e-06
vernier = 0.138732
Gmin = 9.93448e-07
vernier = 0.184976
vernier = 0.246634
Gmin = 6.11766e-07
vernier = 0.328846
vernier = 0.438461
Gmin = 2.86804e-07
vernier = 0.584614
Gmin = 8.62005e-08
vernier = 0.779486
vernier = 1
Gmin = 1.32315e-08
Gmin = 1.42072e-09
Gmin = 1.52549e-10
Gmin = 1.63798e-11
Gmin = 0
Gmin stepping succeeded in finding the operating point.

Semiconductor Device Operating Points:
                        --- Bipolar Transistors ---
Name:       q3          q5          q2          q6          q1
Model:   q3_bc558b   q5_bc558b   q2_bc548b   q6_bc548b   q1_bc548b
Ib:      -8.15e-06   -8.01e-06    9.84e-06    9.88e-06    2.09e-05
Ic:      -2.84e-03   -2.84e-03    2.85e-03    2.84e-03    5.62e-03
Vbe:     -7.42e-01   -7.42e-01    6.91e-01    6.91e-01    7.10e-01
Vbc:      0.00e+00    5.30e-01   -2.87e+00   -2.34e+00    0.00e+00
Vce:     -7.42e-01   -1.27e+00    3.57e+00    3.04e+00    7.10e-01
BetaDC:   3.48e+02    3.55e+02    2.90e+02    2.88e+02    2.68e+02
Gm:       1.06e-01    1.06e-01    1.07e-01    1.06e-01    2.05e-01
Rpi:      3.19e+03    3.25e+03    2.79e+03    2.78e+03    1.29e+03
Rx:       0.00e+00    0.00e+00    0.00e+00    0.00e+00    0.00e+00
Ro:       1.84e+04    1.86e+04    2.30e+04    2.29e+04    1.12e+04
Cbe:      1.28e-10    1.28e-10    8.39e-11    8.37e-11    1.25e-10
Cbc:      9.83e-12    7.69e-12    2.98e-12    3.14e-12    5.27e-12
Cjs:      0.00e+00    0.00e+00    0.00e+00    0.00e+00    0.00e+00
BetaAC:   3.39e+02    3.46e+02    2.98e+02    2.96e+02    2.64e+02
Cbx:      0.00e+00    0.00e+00    0.00e+00    0.00e+00    0.00e+00
Ft:       1.23e+08    1.25e+08    1.96e+08    1.95e+08    2.50e+08

Name:       q4          q8          q7
Model:   q4_bc548b   q8_bc558b   q7_bc548b
Ib:       2.08e-05    1.55e-10   -6.35e-10
Ic:       5.71e-03   -1.56e-10    6.35e-10
Vbe:      7.10e-01   -7.87e-05    0.00e+00
Vbc:     -1.05e+00    1.56e+00   -6.35e+00
Vce:      1.76e+00   -1.56e+00    6.35e+00
BetaDC:   2.74e+02   -1.00e+00   -1.00e+00
Gm:       2.08e-01    4.07e-14    3.00e-13
Rpi:      1.30e+03    9.98e+09    9.84e+09
Rx:       0.00e+00    0.00e+00    0.00e+00
Ro:       1.12e+04    5.11e+16    8.91e+15
Cbe:      1.27e-10    3.00e-11    1.15e-11
Cbc:      3.78e-12    6.09e-12    2.39e-12
Cjs:      0.00e+00    0.00e+00    0.00e+00
BetaAC:   2.70e+02    4.06e-04    2.95e-03
Cbx:      0.00e+00    0.00e+00    0.00e+00
Ft:       2.54e+08    4.42e-01    1.16e+00

                        --- MOSFET Transistors ---
Name:          m1          m2
Model:     irf9540npbf   2n7000
Id:         -1.06e-02    3.41e-10
Vgs:        -1.56e+00    0.00e+00
Vds:        -3.05e+00    1.70e+00
Vbs:         0.00e+00    0.00e+00
Vth:        -1.50e+00    2.10e+00
Vdsat:      -5.51e-02    0.00e+00
Gm:          3.84e-01    0.00e+00
Gds:         2.67e-05    0.00e+00
Gmb:         0.00e+00    0.00e+00
Cbd:         0.00e+00    0.00e+00
Cbs:         0.00e+00    0.00e+00
Cgsov:       1.16e-09    1.80e-15
Cgdov:       1.00e-15    1.00e-17
Cgbov:       0.00e+00    0.00e+00
Cgs:         0.00e+00    0.00e+00
Cgd:         0.00e+00    0.00e+00
Cgb:         0.00e+00    0.00e+00


Total elapsed time: 0.458 seconds.

