.STEP increment has wrong sign -- fixing...
LTspice 24.0.12 for Windows
Circuit: * X:\taller-circuitos-tpi\CHECK 3\pruebanacholazocorriente.asc
Start Time: Thu Oct 31 00:10:24 2024
Warning: Multiple definitions of model "2scr375p" Type: BJT
Warning: Multiple definitions of model "bc857b" Type: BJT
Warning: Multiple definitions of model "bc847c" Type: BJT
Warning: Multiple definitions of model "bc847b" Type: BJT
solver = Normal
Maximum thread count: 2



gmin = 1e-10
abstol = 1e-10
reltol = 0.003
Early termination of direct N-R iteration.
Direct Newton iteration failed to find .op point.  (Use ".option noopiter" to skip.)
Starting Gmin stepping
Gmin = 10
Gmin = 1.07374
vernier = 0.5
vernier = 0.25
vernier = 0.125
vernier = 0.0625
Gmin = 0.995033
vernier = 0.03125
vernier = 0.015625
vernier = 0.0078125
vernier = 0.00390625
vernier = 0.00195312
Gmin = 1.00763
vernier = 0.00260417
vernier = 0.00130208
vernier = 0.000651042
Gmin = 1.00501
vernier = 0.000868055
vernier = 0.000434028
Gmin = 0
Gmin stepping failed

Starting source stepping with srcstepmethod=0
Source Step = 3.0303%
Source Step = 33.3333%
Source Step = 40.9328%
Source Step = 40.9683%
Source Step = 40.9979%
Source Step = 41.0275%
Source Step = 41.0571%
Source Step = 41.0866%
vernier = 0.00146484
Source Step = 41.1222%
Source Step = 41.1665%
Source Step = 41.2109%
Source Step = 41.2553%
Source Step = 41.2997%
vernier = 0.00219727
Source Step = 41.3508%
Source Step = 41.4173%
Source Step = 41.4839%
Source Step = 41.5505%
Source Step = 41.6171%
vernier = 0.0032959
Source Step = 41.6903%
Source Step = 41.7902%
Source Step = 41.8901%
Source Step = 41.99%
Source Step = 42.0898%
vernier = 0.00494385
Source Step = 42.1947%
Source Step = 42.3445%
Source Step = 42.4943%
Source Step = 42.6442%
Source Step = 42.794%
Source Step = 42.9438%
vernier = 0.00741577
Source Step = 43.1685%
Source Step = 43.3932%
Source Step = 43.6179%
Source Step = 43.8427%
Source Step = 44.0674%
vernier = 0.0111237
Source Step = 44.3932%
Source Step = 44.7303%
Source Step = 45.0674%
Source Step = 45.4045%
Source Step = 45.7415%
vernier = 0.0166855
Source Step = 46.2135%
Source Step = 46.7191%
Source Step = 47.2247%
Source Step = 47.7303%
Source Step = 48.2359%
vernier = 0.0250282
Source Step = 48.9185%
Source Step = 49.677%
Source Step = 50.4354%
Source Step = 51.1938%
Source Step = 51.9523%
vernier = 0.0375423
Source Step = 52.9382%
Source Step = 54.0759%
Source Step = 55.2135%
Source Step = 56.3512%
Source Step = 57.4888%
vernier = 0.0563135
Source Step = 58.9109%
Source Step = 60.6173%
Source Step = 62.3238%
Source Step = 63.4757%
vernier = 0.00351959
Source Step = 63.473%
Source Step = 63.4997%
Source Step = 63.5263%
Source Step = 63.553%
Source Step = 63.5797%
vernier = 0.00131985
Source Step = 63.6103%
Source Step = 63.6503%
Source Step = 63.6903%
Source Step = 63.7303%
Source Step = 63.7703%
vernier = 0.00197977
Source Step = 63.8143%
Source Step = 63.8743%
Source Step = 63.9343%
Source Step = 63.9943%
Source Step = 64.0543%
vernier = 0.00296966
Source Step = 64.1173%
Source Step = 64.2073%
Source Step = 64.2972%
Source Step = 64.3872%
Source Step = 64.4772%
Source Step = 64.5672%
vernier = 0.00445449
Source Step = 64.7022%
Source Step = 64.8372%
Source Step = 64.9722%
Source Step = 65.1072%
Source Step = 65.2421%
vernier = 0.00668173
Source Step = 65.4379%
Source Step = 65.6403%
Source Step = 65.8428%
Source Step = 66.0453%
Source Step = 66.2478%
vernier = 0.0100226
Source Step = 66.5312%
Source Step = 66.835%
Source Step = 67.1387%
Source Step = 67.4424%
Source Step = 67.7461%
vernier = 0.0150339
Source Step = 68.1561%
Source Step = 68.6117%
Source Step = 69.0673%
Source Step = 69.5228%
Source Step = 69.9784%
vernier = 0.0225508
Source Step = 70.5706%
Source Step = 71.254%
Source Step = 71.9374%
Source Step = 72.6207%
Source Step = 73.3041%
vernier = 0.0338263
Source Step = 74.1583%
Source Step = 75.1833%
Source Step = 76.2084%
Source Step = 77.2334%
Source Step = 78.2584%
vernier = 0.0507394
Source Step = 79.4885%
Source Step = 81.026%
Source Step = 82.5636%
Source Step = 84.1012%
Source Step = 85.6387%
vernier = 0.0761091
Source Step = 87.4069%
Source Step = 89.7132%
Source Step = 90.8736%
Source Step = 90.9096%
Source Step = 90.9457%
Source Step = 90.9817%
Source Step = 91.0178%
Source Step = 91.0538%
vernier = 0.00178381
Source Step = 91.1078%
Source Step = 91.1619%
Source Step = 91.216%
Source Step = 91.27%
Source Step = 91.3241%
vernier = 0.00267571
Source Step = 91.4024%
Source Step = 91.4835%
Source Step = 91.5646%
Source Step = 91.6457%
Source Step = 91.7268%
vernier = 0.00401357
Source Step = 91.8403%
Source Step = 91.9619%
Source Step = 92.0835%
Source Step = 92.2052%
Source Step = 92.3268%
vernier = 0.00602035
Source Step = 92.491%
Source Step = 92.6734%
Source Step = 92.8558%
Source Step = 93.0383%
Source Step = 93.2207%
vernier = 0.00903052
Source Step = 93.4579%
Source Step = 93.7315%
Source Step = 94.0052%
Source Step = 94.2788%
Source Step = 94.5525%
vernier = 0.0135458
Source Step = 94.8946%
Source Step = 95.305%
Source Step = 95.7155%
Source Step = 96.126%
Source Step = 96.5365%
vernier = 0.0203187
Source Step = 97.029%
Source Step = 97.6448%
Source Step = 98.2605%
Source Step = 98.8762%
Source Step = 99.4919%
vernier = 0.030478
Source stepping succeeded in finding the operating point.

Semiconductor Device Operating Points:
                        --- Diodes ---
Name:    d:u1:c      d:u1:e      d:u1:lp     d:u1:ln     d:u1:p
Model:    u1:dy       u1:dy       u1:dx       u1:dx       u1:dx
Id:     -4.68e-10    7.77e-13   -1.10e-08   -1.10e-08   -6.35e-10
Vd:     -4.67e+00    8.67e-03   -1.10e+02   -1.10e+02   -6.35e+00
Req:     1.00e+10    1.00e+10    1.00e+10    1.00e+10    1.00e+10
CAP:     4.20e-12    1.00e-11    0.00e+00    0.00e+00    0.00e+00

Name:    d:u2:c      d:u2:e      d:u2:lp     d:u2:ln     d:u2:p
Model:    u2:dy       u2:dy       u2:dx       u2:dx       u2:dx
Id:     -5.26e-10    8.97e-06   -1.10e-08   -1.10e-08   -6.35e-10
Vd:     -5.26e+00    5.99e-01   -1.10e+02   -1.10e+02   -6.35e+00
Req:     1.00e+10    2.88e+03    1.00e+10    1.00e+10    1.00e+10
CAP:     4.00e-12    1.55e-11    0.00e+00    0.00e+00    0.00e+00

Name:    d:u3:c      d:u3:e      d:u3:lp     d:u3:ln     d:u3:p
Model:    u3:dy       u3:dy       u3:dx       u3:dx       u3:dx
Id:     -5.49e-10    4.94e-02   -1.59e-08   -6.06e-09   -6.35e-10
Vd:     -5.49e+00    8.21e-01   -1.59e+02   -6.06e+01   -6.35e+00
Req:     1.00e+10    5.24e-01    1.00e+10    1.00e+10    1.00e+10
CAP:     3.93e-12    1.87e-11    0.00e+00    0.00e+00    0.00e+00

Name:    d:u4:c      d:u4:e      d:u4:lp     d:u4:ln     d:u4:p
Model:    u4:dy       u4:dy       u4:dx       u4:dx       u4:dx
Id:     -5.24e-10    4.03e-06   -1.10e-08   -1.10e-08   -6.35e-10
Vd:     -5.24e+00    5.78e-01   -1.10e+02   -1.10e+02   -6.35e+00
Req:     1.00e+10    6.41e+03    1.00e+10    1.00e+10    1.00e+10
CAP:     4.00e-12    1.52e-11    0.00e+00    0.00e+00    0.00e+00

Name:    d:u5:c      d:u5:e      d:u5:lp     d:u5:ln     d:u5:p
Model:    u5:dy       u5:dy       u5:dx       u5:dx       u5:dx
Id:     -4.94e-10    5.80e-11   -1.10e-08   -1.10e-08   -6.35e-10
Vd:     -4.94e+00    2.73e-01   -1.10e+02   -1.10e+02   -6.35e+00
Req:     1.00e+10    7.78e+08    1.00e+10    1.00e+10    1.00e+10
CAP:     4.10e-12    1.17e-11    0.00e+00    0.00e+00    0.00e+00

                        --- Bipolar Transistors ---
Name:       q2          q3          q1          q4          q5
Model:    bc558b      bc558b      bc558b      bc548b      bc548b
Ib:      -5.62e-11    8.39e-11   -1.96e-05   -7.78e-10    1.82e-05
Ic:      -6.27e-10   -7.84e-10   -5.70e-03    5.99e-10    5.70e-03
Vbe:     -3.45e-01   -3.45e-01   -7.60e-01   -1.78e+00    7.10e-01
Vbc:      0.00e+00    1.40e+00    9.85e-01   -5.99e+00   -2.10e+00
Vce:     -3.45e-01   -1.75e+00   -1.75e+00    4.22e+00    2.81e+00
BetaDC:   1.12e+01   -9.34e+00    2.90e+02   -7.71e-01    3.14e+02
Gm:       2.42e-08    2.49e-08    2.07e-01    3.95e-43    2.08e-01
Rpi:      1.64e+09    1.64e+09    1.32e+03    1.00e+10    1.50e+03
Rx:       0.00e+00    0.00e+00    0.00e+00    0.00e+00    0.00e+00
Ro:       8.31e+10    8.34e+10    9.34e+03    0.00e+00    1.14e+04
Cbe:      4.26e-11    4.26e-11    1.91e-10    4.15e-12    1.26e-10
Cbc:      9.81e-12    6.25e-12    6.80e-12    2.43e-12    3.23e-12
Cjs:      0.00e+00    0.00e+00    0.00e+00    0.00e+00    0.00e+00
BetaAC:   3.98e+01    4.08e+01    2.74e+02    3.95e-33    3.12e+02
Cbx:      0.00e+00    0.00e+00    0.00e+00    0.00e+00    0.00e+00
Ft:       7.36e+01    8.11e+01    1.67e+08    2.42e+00    2.55e+08

Name:       q6          q7          q8
Model:    bc548b      bc548b      bc548b
Ib:       1.85e-05    1.85e-05    1.46e-07
Ic:       5.63e-03    5.72e-03    2.73e-05
Vbe:      7.10e-01    7.10e-01    5.69e-01
Vbc:      0.00e+00   -1.08e+00   -5.02e+00
Vce:      7.10e-01    1.79e+00    5.59e+00
BetaDC:   3.04e+02    3.09e+02    1.87e+02
Gm:       2.05e-01    2.08e-01    1.05e-03
Rpi:      1.47e+03    1.47e+03    2.20e+05
Rx:       0.00e+00    0.00e+00    0.00e+00
Ro:       1.12e+04    1.12e+04    2.49e+06
Cbe:      1.25e-10    1.27e-10    3.44e-11
Cbc:      5.27e-12    3.76e-12    2.56e-12
Cjs:      0.00e+00    0.00e+00    0.00e+00
BetaAC:   3.01e+02    3.06e+02    2.32e+02
Cbx:      0.00e+00    0.00e+00    0.00e+00
Ft:       2.50e+08    2.54e+08    4.53e+06

                        --- JFE